
T1DC8 000:321 SEGGER J-Link V5.10g Log File (0001ms, 0269ms total)
T1DC8 000:321 DLL Compiled: Jan  6 2016 13:44:33 (0001ms, 0269ms total)
T1DC8 000:321 Logging started @ 2016-02-10 01:01 (0001ms, 0269ms total)
T1DC8 000:322 JLINK_SetWarnOutHandler(...) (0000ms, 0269ms total)
T1DC8 000:322 JLINK_OpenEx(...)
Firmware: J-Link OB-SAM3U128-V2-NordicSemi compiled Aug 28 2015 19:26:24
Hardware: V1.00
S/N: 682166364  returns O.K. (0263ms, 0532ms total)
T1DC8 000:586 JLINK_SetErrorOutHandler(...) (0000ms, 0532ms total)
T1DC8 000:586 JLINK_ExecCommand("ProjectFile = "C:\Users\stephen\Desktop\spring_2016\senior_design\ble\sdk\examples\ble_peripheral\nRF52-Test\pca10040\s132\arm5_no_packs\JLinkSettings.ini"", ...)  returns 0x00 (0003ms, 0535ms total)
T1DC8 000:601 JLINK_ExecCommand("Device = nRF52832_xxAA", ...)Device "NRF52832_XXAA" selected.  returns 0x00 (0010ms, 0545ms total)
T1DC8 000:612 JLINK_ExecCommand("DisableConnectionTimeout", ...)  returns 0x01 (0000ms, 0545ms total)
T1DC8 000:612 JLINK_GetHardwareVersion()  returns 0x2710 (0000ms, 0545ms total)
T1DC8 000:612 JLINK_GetDLLVersion()  returns 51007 (0000ms, 0545ms total)
T1DC8 000:612 JLINK_GetFirmwareString(...) (0000ms, 0545ms total)
T1DC8 000:626 JLINK_GetDLLVersion()  returns 51007 (0000ms, 0545ms total)
T1DC8 000:626 JLINK_GetCompileDateTime() (0000ms, 0545ms total)
T1DC8 000:629 JLINK_GetFirmwareString(...) (0000ms, 0545ms total)
T1DC8 000:632 JLINK_GetHardwareVersion()  returns 0x2710 (0000ms, 0545ms total)
T1DC8 000:641 JLINK_TIF_Select(JLINKARM_TIF_SWD)  returns 0x00 (0001ms, 0546ms total)
T1DC8 000:642 JLINK_SetSpeed(5000) (0000ms, 0546ms total)
T1DC8 000:642 JLINK_GetId() >0x108 TIF>Found SWD-DP with ID 0x2BA01477 >0x0D TIF> >0x28 TIF> >0x0D TIF> >0x28 TIF> >0x0D TIF> >0x28 TIF> >0x0D TIF> >0x28 TIF> >0x35 TIF> >0x0D TIF> >0x28 TIF> >0x0D TIF> >0x28 TIF> >0x35 TIF> >0x35 TIF> >0x35 TIF> >0x0D TIF> >0x28 TIF> >0x0D TIF> >0x28 TIF> >0x0D TIF> >0x28 TIF> >0x35 TIF> >0x35 TIF> >0x0D TIF> >0x28 TIF> >0x35 TIF> >0x35 TIF>Found Cortex-M4 r0p1, Little endian. -- CPU_ReadMem(4 bytes @ 0xE000EDF0) -- CPU_ReadMem(4 bytes @ 0xE0002000)
FPUnit: 6 code (BP) slots and 2 literal slots -- CPU_ReadMem(4 bytes @ 0xE000EDFC) -- CPU_WriteMem(4 bytes @ 0xE000EDFC) -- CPU_ReadMem(4 bytes @ 0xE0001000) -- CPU_WriteMem(4 bytes @ 0xE0001000) -- CPU_ReadMem(4 bytes @ 0xE000ED88) -- CPU_WriteMem(4 bytes @ 0xE000ED88) -- CPU_ReadMem(4 bytes @ 0xE000ED88) -- CPU_WriteMem(4 bytes @ 0xE000ED88)CoreSight components:ROMTbl 0 @ E00FF000 -- CPU_ReadMem(16 bytes @ 0xE00FF000) -- CPU_ReadMem(16 bytes @ 0xE000EFF0) -- CPU_ReadMem(16 bytes @ 0xE000EFE0)
ROMTbl 0 [0]: FFF0F000, CID: B105E00D, PID: 000BB00C SCS -- CPU_ReadMem(16 bytes @ 0xE0001FF0) -- CPU_ReadMem(16 bytes @ 0xE0001FE0)ROMTbl 0 [1]: FFF02000, CID: B105E00D, PID: 003BB002 DWT -- CPU_ReadMem(16 bytes @ 0xE0002FF0) -- CPU_ReadMem(16 bytes @ 0xE0002FE0)ROMTbl 0 [2]: FFF03000, CID: B105E00D, PID: 002BB003 FPB -- CPU_ReadMem(16 bytes @ 0xE0000FF0) -- CPU_ReadMem(16 bytes @ 0xE0000FE0)ROMTbl 0 [3]: FFF01000, CID: B105E00D, PID: 003BB001 ITM -- CPU_ReadMem(16 bytes @ 0xE00FF010)
 -- CPU_ReadMem(16 bytes @ 0xE0040FF0) -- CPU_ReadMem(16 bytes @ 0xE0040FE0)ROMTbl 0 [4]: FFF41000, CID: B105900D, PID: 000BB925 ETM -- CPU_ReadMem(16 bytes @ 0xE0041FF0) -- CPU_ReadMem(16 bytes @ 0xE0041FE0)ROMTbl 0 [5]: FFF42000, CID: B105900D, PID: 003BB923 TPIU-Lite -- CPU_ReadMem(16 bytes @ 0xD00FFFF0) -- CPU_ReadMem(16 bytes @ 0xD00FFFE0)ROMTbl 0 [6]: F0000000, CID: 00000000, PID: 00000000 ??? >0x35 TIF>  returns 0x2BA01477 (0052ms, 0598ms total)
T1DC8 000:694 JLINK_GetDLLVersion()  returns 51007 (0000ms, 0598ms total)
T1DC8 000:694 JLINK_CORE_GetFound()  returns 0xE0000FF (0000ms, 0598ms total)
T1DC8 000:694 JLINK_GetDebugInfo(0x100) -- Value=0xE00FF000  returns 0x00 (0000ms, 0598ms total)
T1DC8 000:696 JLINK_GetDebugInfo(0x100) -- Value=0xE00FF000  returns 0x00 (0000ms, 0598ms total)
T1DC8 000:696 JLINK_GetDebugInfo(0x101) -- Value=0xE0040000  returns 0x00 (0000ms, 0598ms total)
T1DC8 000:696 JLINK_GetDebugInfo(0x102) -- Value=0x00000000  returns 0x00 (0000ms, 0598ms total)
T1DC8 000:696 JLINK_GetDebugInfo(0x103) -- Value=0xE0041000  returns 0x00 (0000ms, 0598ms total)
T1DC8 000:696 JLINK_GetDebugInfo(0x104) -- Value=0xE0000000  returns 0x00 (0000ms, 0598ms total)
T1DC8 000:697 JLINK_GetDebugInfo(0x105) -- Value=0xE0001000  returns 0x00 (0000ms, 0599ms total)
T1DC8 000:697 JLINK_GetDebugInfo(0x106) -- Value=0xE0002000  returns 0x00 (0000ms, 0599ms total)
T1DC8 000:697 JLINK_GetDebugInfo(0x107) -- Value=0xE000E000  returns 0x00 (0000ms, 0599ms total)
T1DC8 000:697 JLINK_GetDebugInfo(0x10C) -- Value=0xE000EDF0  returns 0x00 (0000ms, 0599ms total)
T1DC8 000:697 JLINK_ReadMemU32(0xE000EF40, 0x0001 Items, ...) -- CPU is running -- CPU_ReadMem(4 bytes @ 0xE000EF40) - Data: 21 00 11 10  returns 0x01 (0000ms, 0599ms total)
T1DC8 000:697 JLINK_ReadMemU32(0xE000EF44, 0x0001 Items, ...) -- CPU is running -- CPU_ReadMem(4 bytes @ 0xE000EF44) - Data: 11 00 00 11  returns 0x01 (0001ms, 0600ms total)
T1DC8 000:698 JLINK_ReadMemU32(0xE000ED00, 0x0001 Items, ...) -- CPU is running -- CPU_ReadMem(4 bytes @ 0xE000ED00) - Data: 41 C2 0F 41  returns 0x01 (0000ms, 0600ms total)
T1DC8 000:698 JLINK_SetResetType(JLINKARM_RESET_TYPE_NORMAL)  returns JLINKARM_RESET_TYPE_NORMAL (0000ms, 0600ms total)
T1DC8 000:698 JLINK_Reset() -- CPU is running -- CPU_WriteMem(4 bytes @ 0xE000EDF0) -- CPU is running -- CPU_WriteMem(4 bytes @ 0xE000EDFC) >0x35 TIF> -- CPU is running -- CPU_WriteMem(4 bytes @ 0xE000ED0C) -- CPU is running -- CPU_ReadMem(4 bytes @ 0xE000EDF0) -- CPU is running -- CPU_ReadMem(4 bytes @ 0xE000EDF0) -- CPU is running -- CPU_WriteMem(4 bytes @ 0xE000EDF0) -- CPU is running -- CPU_WriteMem(4 bytes @ 0xE000EDFC) -- CPU is running -- CPU_ReadMem(4 bytes @ 0xE000EDF0)
 -- CPU_WriteMem(4 bytes @ 0xE0002000) -- CPU_ReadMem(4 bytes @ 0xE000EDFC) -- CPU_ReadMem(4 bytes @ 0xE0001000) (0022ms, 0622ms total)
T1DC8 000:720 JLINK_Halt()  returns 0x00 (0000ms, 0622ms total)
T1DC8 000:720 JLINK_IsHalted()  returns TRUE (0000ms, 0622ms total)
T1DC8 000:720 JLINK_ReadMemU32(0xE000EDF0, 0x0001 Items, ...) -- CPU_ReadMem(4 bytes @ 0xE000EDF0) - Data: 03 00 03 00  returns 0x01 (0001ms, 0623ms total)
T1DC8 000:721 JLINK_WriteU32(0xE000EDF0, 0xA05F0003) -- CPU_WriteMem(4 bytes @ 0xE000EDF0)  returns 0x00 (0000ms, 0623ms total)
T1DC8 000:721 JLINK_WriteU32(0xE000EDFC, 0x01000000) -- CPU_WriteMem(4 bytes @ 0xE000EDFC)  returns 0x00 (0001ms, 0624ms total)
T1DC8 000:731 JLINK_GetHWStatus(...)  returns 0x00 (0000ms, 0624ms total)
T1DC8 000:736 JLINK_GetNumBPUnits(Type = 0xFFFFFF00)  returns 0x06 (0000ms, 0624ms total)
T1DC8 000:736 JLINK_GetNumBPUnits(Type = 0xF0)  returns 0x2000 (0000ms, 0624ms total)
T1DC8 000:736 JLINK_GetNumWPUnits()  returns 0x04 (0000ms, 0624ms total)
T1DC8 000:742 JLINK_GetSpeed()  returns 0x3E8 (0000ms, 0624ms total)
T1DC8 000:747 JLINK_ReadMemU32(0xE000E004, 0x0001 Items, ...) -- CPU_ReadMem(4 bytes @ 0xE000E004) - Data: 01 00 00 00  returns 0x01 (0000ms, 0624ms total)
T1DC8 000:747 JLINK_ReadMemU32(0xE000E004, 0x0001 Items, ...) -- CPU_ReadMem(4 bytes @ 0xE000E004) - Data: 01 00 00 00  returns 0x01 (0001ms, 0625ms total)
T1DC8 000:748 JLINK_WriteMem(0xE0001000, 0x001C Bytes, ...) - Data: 01 00 00 00 00 00 00 00 00 00 00 00 00 00 00 00 ... -- CPU_WriteMem(28 bytes @ 0xE0001000)  returns 0x1C (0001ms, 0626ms total)
T1DC8 000:749 JLINK_ReadMem (0xE0001000, 0x001C Bytes, ...) -- CPU_ReadMem(28 bytes @ 0xE0001000) - Data: 01 00 00 40 00 00 00 00 00 00 00 00 00 00 00 00 ...  returns 0x00 (0001ms, 0627ms total)
T1DC8 000:750 JLINK_Halt()  returns 0x00 (0000ms, 0627ms total)
T1DC8 000:750 JLINK_IsHalted()  returns TRUE (0000ms, 0627ms total)
T1DC8 000:752 JLINK_WriteMem(0x20000000, 0x01F4 Bytes, ...) - Data: 00 BE 0A E0 0D 78 2D 06 68 40 08 24 40 00 00 D3 ... -- CPU_WriteMem(500 bytes @ 0x20000000)  returns 0x1F4 (0008ms, 0635ms total)
T1DC8 000:760 JLINK_WriteReg(R0, 0x00000000)  returns 0x00 (0000ms, 0635ms total)
T1DC8 000:760 JLINK_WriteReg(R1, 0x03D09000)  returns 0x00 (0000ms, 0635ms total)
T1DC8 000:760 JLINK_WriteReg(R2, 0x00000001)  returns 0x00 (0000ms, 0635ms total)
T1DC8 000:760 JLINK_WriteReg(R3, 0x00000000)  returns 0x00 (0000ms, 0635ms total)
T1DC8 000:760 JLINK_WriteReg(R4, 0x00000000)  returns 0x00 (0000ms, 0635ms total)
T1DC8 000:760 JLINK_WriteReg(R5, 0x00000000)  returns 0x00 (0000ms, 0635ms total)
T1DC8 000:760 JLINK_WriteReg(R6, 0x00000000)  returns 0x00 (0000ms, 0635ms total)
T1DC8 000:760 JLINK_WriteReg(R7, 0x00000000)  returns 0x00 (0000ms, 0635ms total)
T1DC8 000:760 JLINK_WriteReg(R8, 0x00000000)  returns 0x00 (0000ms, 0635ms total)
T1DC8 000:760 JLINK_WriteReg(R9, 0x200001F0)  returns 0x00 (0000ms, 0635ms total)
T1DC8 000:760 JLINK_WriteReg(R10, 0x00000000)  returns 0x00 (0000ms, 0635ms total)
T1DC8 000:760 JLINK_WriteReg(R11, 0x00000000)  returns 0x00 (0000ms, 0635ms total)
T1DC8 000:760 JLINK_WriteReg(R12, 0x00000000)  returns 0x00 (0000ms, 0635ms total)
T1DC8 000:760 JLINK_WriteReg(R13 (SP), 0x20004000)  returns 0x00 (0000ms, 0635ms total)
T1DC8 000:760 JLINK_WriteReg(R14, 0x20000001)  returns 0x00 (0000ms, 0635ms total)
T1DC8 000:760 JLINK_WriteReg(R15 (PC), 0x20000028)  returns 0x00 (0000ms, 0635ms total)
T1DC8 000:760 JLINK_WriteReg(XPSR, 0x01000000)  returns 0x00 (0000ms, 0635ms total)
T1DC8 000:760 JLINK_WriteReg(MSP, 0x20004000)  returns 0x00 (0000ms, 0635ms total)
T1DC8 000:760 JLINK_WriteReg(PSP, 0x20004000)  returns 0x00 (0000ms, 0635ms total)
T1DC8 000:760 JLINK_WriteReg(CFBP, 0x00000000)  returns 0x00 (0000ms, 0635ms total)
T1DC8 000:760 JLINK_SetBPEx(Addr = 0x20000000, Type = 0xFFFFFFF2) -- CPU_ReadMem(2 bytes @ 0x20000000)  returns 0x00000001 (0001ms, 0636ms total)
T1DC8 000:761 JLINK_Go() -- CPU_WriteMem(2 bytes @ 0x20000000) -- CPU_ReadMem(4 bytes @ 0xE0001000) -- CPU_WriteMem(4 bytes @ 0xE0002008) -- CPU_WriteMem(4 bytes @ 0xE000200C) -- CPU_WriteMem(4 bytes @ 0xE0002010) -- CPU_WriteMem(4 bytes @ 0xE0002014) -- CPU_WriteMem(4 bytes @ 0xE0002018) -- CPU_WriteMem(4 bytes @ 0xE000201C) -- CPU_WriteMem(4 bytes @ 0xE0001004) (0008ms, 0644ms total)
T1DC8 000:769 JLINK_IsHalted() -- CPU_ReadMem(2 bytes @ 0x20000000)  returns TRUE (0007ms, 0651ms total)
T1DC8 000:776 JLINK_ReadReg(R15 (PC))  returns 0x20000000 (0000ms, 0644ms total)
T1DC8 000:776 JLINK_ClrBPEx(BPHandle = 0x00000001)  returns 0x00 (0000ms, 0644ms total)
T1DC8 000:776 JLINK_ReadReg(R0)  returns 0x00000000 (0000ms, 0644ms total)
T1DC8 000:777 JLINK_WriteReg(R0, 0x0001F000)  returns 0x00 (0000ms, 0644ms total)
T1DC8 000:777 JLINK_WriteReg(R1, 0x00001000)  returns 0x00 (0000ms, 0644ms total)
T1DC8 000:777 JLINK_WriteReg(R2, 0x000000FF)  returns 0x00 (0000ms, 0644ms total)
T1DC8 000:777 JLINK_WriteReg(R3, 0x00000000)  returns 0x00 (0000ms, 0644ms total)
T1DC8 000:777 JLINK_WriteReg(R4, 0x00000000)  returns 0x00 (0000ms, 0644ms total)
T1DC8 000:777 JLINK_WriteReg(R5, 0x00000000)  returns 0x00 (0000ms, 0644ms total)
T1DC8 000:777 JLINK_WriteReg(R6, 0x00000000)  returns 0x00 (0000ms, 0644ms total)
T1DC8 000:777 JLINK_WriteReg(R7, 0x00000000)  returns 0x00 (0000ms, 0644ms total)
T1DC8 000:777 JLINK_WriteReg(R8, 0x00000000)  returns 0x00 (0000ms, 0644ms total)
T1DC8 000:777 JLINK_WriteReg(R9, 0x200001F0)  returns 0x00 (0000ms, 0644ms total)
T1DC8 000:777 JLINK_WriteReg(R10, 0x00000000)  returns 0x00 (0000ms, 0644ms total)
T1DC8 000:777 JLINK_WriteReg(R11, 0x00000000)  returns 0x00 (0000ms, 0644ms total)
T1DC8 000:777 JLINK_WriteReg(R12, 0x00000000)  returns 0x00 (0000ms, 0644ms total)
T1DC8 000:777 JLINK_WriteReg(R13 (SP), 0x20004000)  returns 0x00 (0000ms, 0644ms total)
T1DC8 000:777 JLINK_WriteReg(R14, 0x20000001)  returns 0x00 (0000ms, 0644ms total)
T1DC8 000:777 JLINK_WriteReg(R15 (PC), 0x200000E4)  returns 0x00 (0000ms, 0644ms total)
T1DC8 000:777 JLINK_WriteReg(XPSR, 0x01000000)  returns 0x00 (0000ms, 0644ms total)
T1DC8 000:777 JLINK_WriteReg(MSP, 0x20004000)  returns 0x00 (0000ms, 0644ms total)
T1DC8 000:777 JLINK_WriteReg(PSP, 0x20004000)  returns 0x00 (0000ms, 0644ms total)
T1DC8 000:777 JLINK_WriteReg(CFBP, 0x00000000)  returns 0x00 (0000ms, 0644ms total)
T1DC8 000:777 JLINK_SetBPEx(Addr = 0x20000000, Type = 0xFFFFFFF2)  returns 0x00000002 (0000ms, 0644ms total)
T1DC8 000:777 JLINK_Go() -- CPU_ReadMem(4 bytes @ 0xE0001000) (0004ms, 0648ms total)
T1DC8 000:781 JLINK_IsHalted() -- CPU_ReadMem(2 bytes @ 0x20000000)  returns TRUE (0007ms, 0655ms total)
T1DC8 000:788 JLINK_ReadReg(R15 (PC))  returns 0x20000000 (0000ms, 0648ms total)
T1DC8 000:788 JLINK_ClrBPEx(BPHandle = 0x00000002)  returns 0x00 (0000ms, 0648ms total)
T1DC8 000:788 JLINK_ReadReg(R0)  returns 0x00000001 (0000ms, 0648ms total)
T1DC8 000:788 JLINK_WriteReg(R0, 0x0001F000)  returns 0x00 (0000ms, 0648ms total)
T1DC8 000:788 JLINK_WriteReg(R1, 0x00001000)  returns 0x00 (0000ms, 0648ms total)
T1DC8 000:788 JLINK_WriteReg(R2, 0x000000FF)  returns 0x00 (0000ms, 0648ms total)
T1DC8 000:788 JLINK_WriteReg(R3, 0x00000000)  returns 0x00 (0000ms, 0648ms total)
T1DC8 000:788 JLINK_WriteReg(R4, 0x00000000)  returns 0x00 (0000ms, 0648ms total)
T1DC8 000:788 JLINK_WriteReg(R5, 0x00000000)  returns 0x00 (0000ms, 0648ms total)
T1DC8 000:788 JLINK_WriteReg(R6, 0x00000000)  returns 0x00 (0000ms, 0648ms total)
T1DC8 000:788 JLINK_WriteReg(R7, 0x00000000)  returns 0x00 (0000ms, 0648ms total)
T1DC8 000:788 JLINK_WriteReg(R8, 0x00000000)  returns 0x00 (0000ms, 0648ms total)
T1DC8 000:788 JLINK_WriteReg(R9, 0x200001F0)  returns 0x00 (0000ms, 0648ms total)
T1DC8 000:788 JLINK_WriteReg(R10, 0x00000000)  returns 0x00 (0000ms, 0648ms total)
T1DC8 000:788 JLINK_WriteReg(R11, 0x00000000)  returns 0x00 (0000ms, 0648ms total)
T1DC8 000:788 JLINK_WriteReg(R12, 0x00000000)  returns 0x00 (0000ms, 0648ms total)
T1DC8 000:788 JLINK_WriteReg(R13 (SP), 0x20004000)  returns 0x00 (0000ms, 0648ms total)
T1DC8 000:788 JLINK_WriteReg(R14, 0x20000001)  returns 0x00 (0000ms, 0648ms total)
T1DC8 000:788 JLINK_WriteReg(R15 (PC), 0x200000A2)  returns 0x00 (0001ms, 0649ms total)
T1DC8 000:789 JLINK_WriteReg(XPSR, 0x01000000)  returns 0x00 (0000ms, 0649ms total)
T1DC8 000:789 JLINK_WriteReg(MSP, 0x20004000)  returns 0x00 (0000ms, 0649ms total)
T1DC8 000:789 JLINK_WriteReg(PSP, 0x20004000)  returns 0x00 (0000ms, 0649ms total)
T1DC8 000:789 JLINK_WriteReg(CFBP, 0x00000000)  returns 0x00 (0000ms, 0649ms total)
T1DC8 000:789 JLINK_SetBPEx(Addr = 0x20000000, Type = 0xFFFFFFF2)  returns 0x00000003 (0000ms, 0649ms total)
T1DC8 000:789 JLINK_Go() -- CPU_ReadMem(4 bytes @ 0xE0001000) (0002ms, 0651ms total)
T1DC8 000:791 JLINK_IsHalted()  returns FALSE (0001ms, 0652ms total)
T1DC8 000:832 JLINK_IsHalted() -- CPU_ReadMem(2 bytes @ 0x20000000)  returns TRUE (0007ms, 0658ms total)
T1DC8 000:839 JLINK_ReadReg(R15 (PC))  returns 0x20000000 (0000ms, 0651ms total)
T1DC8 000:839 JLINK_ClrBPEx(BPHandle = 0x00000003)  returns 0x00 (0000ms, 0651ms total)
T1DC8 000:839 JLINK_ReadReg(R0)  returns 0x00000000 (0000ms, 0651ms total)
T1DC8 000:839 JLINK_WriteReg(R0, 0x00020000)  returns 0x00 (0000ms, 0651ms total)
T1DC8 000:839 JLINK_WriteReg(R1, 0x00001000)  returns 0x00 (0000ms, 0651ms total)
T1DC8 000:839 JLINK_WriteReg(R2, 0x000000FF)  returns 0x00 (0000ms, 0651ms total)
T1DC8 000:839 JLINK_WriteReg(R3, 0x00000000)  returns 0x00 (0000ms, 0651ms total)
T1DC8 000:839 JLINK_WriteReg(R4, 0x00000000)  returns 0x00 (0000ms, 0651ms total)
T1DC8 000:839 JLINK_WriteReg(R5, 0x00000000)  returns 0x00 (0000ms, 0651ms total)
T1DC8 000:839 JLINK_WriteReg(R6, 0x00000000)  returns 0x00 (0000ms, 0651ms total)
T1DC8 000:840 JLINK_WriteReg(R7, 0x00000000)  returns 0x00 (0000ms, 0652ms total)
T1DC8 000:840 JLINK_WriteReg(R8, 0x00000000)  returns 0x00 (0000ms, 0652ms total)
T1DC8 000:840 JLINK_WriteReg(R9, 0x200001F0)  returns 0x00 (0000ms, 0652ms total)
T1DC8 000:840 JLINK_WriteReg(R10, 0x00000000)  returns 0x00 (0000ms, 0652ms total)
T1DC8 000:840 JLINK_WriteReg(R11, 0x00000000)  returns 0x00 (0000ms, 0652ms total)
T1DC8 000:840 JLINK_WriteReg(R12, 0x00000000)  returns 0x00 (0000ms, 0652ms total)
T1DC8 000:840 JLINK_WriteReg(R13 (SP), 0x20004000)  returns 0x00 (0000ms, 0652ms total)
T1DC8 000:840 JLINK_WriteReg(R14, 0x20000001)  returns 0x00 (0000ms, 0652ms total)
T1DC8 000:840 JLINK_WriteReg(R15 (PC), 0x200000E4)  returns 0x00 (0000ms, 0652ms total)
T1DC8 000:840 JLINK_WriteReg(XPSR, 0x01000000)  returns 0x00 (0000ms, 0652ms total)
T1DC8 000:840 JLINK_WriteReg(MSP, 0x20004000)  returns 0x00 (0000ms, 0652ms total)
T1DC8 000:840 JLINK_WriteReg(PSP, 0x20004000)  returns 0x00 (0000ms, 0652ms total)
T1DC8 000:840 JLINK_WriteReg(CFBP, 0x00000000)  returns 0x00 (0000ms, 0652ms total)
T1DC8 000:840 JLINK_SetBPEx(Addr = 0x20000000, Type = 0xFFFFFFF2)  returns 0x00000004 (0000ms, 0652ms total)
T1DC8 000:840 JLINK_Go() -- CPU_ReadMem(4 bytes @ 0xE0001000) (0004ms, 0656ms total)
T1DC8 000:844 JLINK_IsHalted() -- CPU_ReadMem(2 bytes @ 0x20000000)  returns TRUE (0007ms, 0663ms total)
T1DC8 000:851 JLINK_ReadReg(R15 (PC))  returns 0x20000000 (0000ms, 0656ms total)
T1DC8 000:851 JLINK_ClrBPEx(BPHandle = 0x00000004)  returns 0x00 (0000ms, 0656ms total)
T1DC8 000:851 JLINK_ReadReg(R0)  returns 0x00000001 (0000ms, 0656ms total)
T1DC8 000:851 JLINK_WriteReg(R0, 0x00020000)  returns 0x00 (0000ms, 0656ms total)
T1DC8 000:851 JLINK_WriteReg(R1, 0x00001000)  returns 0x00 (0000ms, 0656ms total)
T1DC8 000:851 JLINK_WriteReg(R2, 0x000000FF)  returns 0x00 (0000ms, 0656ms total)
T1DC8 000:851 JLINK_WriteReg(R3, 0x00000000)  returns 0x00 (0000ms, 0656ms total)
T1DC8 000:851 JLINK_WriteReg(R4, 0x00000000)  returns 0x00 (0000ms, 0656ms total)
T1DC8 000:851 JLINK_WriteReg(R5, 0x00000000)  returns 0x00 (0000ms, 0656ms total)
T1DC8 000:851 JLINK_WriteReg(R6, 0x00000000)  returns 0x00 (0000ms, 0656ms total)
T1DC8 000:851 JLINK_WriteReg(R7, 0x00000000)  returns 0x00 (0000ms, 0656ms total)
T1DC8 000:851 JLINK_WriteReg(R8, 0x00000000)  returns 0x00 (0000ms, 0656ms total)
T1DC8 000:851 JLINK_WriteReg(R9, 0x200001F0)  returns 0x00 (0000ms, 0656ms total)
T1DC8 000:851 JLINK_WriteReg(R10, 0x00000000)  returns 0x00 (0000ms, 0656ms total)
T1DC8 000:851 JLINK_WriteReg(R11, 0x00000000)  returns 0x00 (0000ms, 0656ms total)
T1DC8 000:851 JLINK_WriteReg(R12, 0x00000000)  returns 0x00 (0000ms, 0656ms total)
T1DC8 000:851 JLINK_WriteReg(R13 (SP), 0x20004000)  returns 0x00 (0000ms, 0656ms total)
T1DC8 000:851 JLINK_WriteReg(R14, 0x20000001)  returns 0x00 (0000ms, 0656ms total)
T1DC8 000:851 JLINK_WriteReg(R15 (PC), 0x200000A2)  returns 0x00 (0000ms, 0656ms total)
T1DC8 000:851 JLINK_WriteReg(XPSR, 0x01000000)  returns 0x00 (0000ms, 0656ms total)
T1DC8 000:851 JLINK_WriteReg(MSP, 0x20004000)  returns 0x00 (0000ms, 0656ms total)
T1DC8 000:851 JLINK_WriteReg(PSP, 0x20004000)  returns 0x00 (0000ms, 0656ms total)
T1DC8 000:851 JLINK_WriteReg(CFBP, 0x00000000)  returns 0x00 (0000ms, 0656ms total)
T1DC8 000:851 JLINK_SetBPEx(Addr = 0x20000000, Type = 0xFFFFFFF2)  returns 0x00000005 (0000ms, 0656ms total)
T1DC8 000:851 JLINK_Go() -- CPU_ReadMem(4 bytes @ 0xE0001000) (0003ms, 0659ms total)
T1DC8 000:854 JLINK_IsHalted()  returns FALSE (0001ms, 0660ms total)
T1DC8 000:856 JLINK_IsHalted() -- CPU_ReadMem(2 bytes @ 0x20000000)  returns TRUE (0007ms, 0666ms total)
T1DC8 000:863 JLINK_ReadReg(R15 (PC))  returns 0x20000000 (0000ms, 0659ms total)
T1DC8 000:863 JLINK_ClrBPEx(BPHandle = 0x00000005)  returns 0x00 (0000ms, 0659ms total)
T1DC8 000:863 JLINK_ReadReg(R0)  returns 0x00000000 (0000ms, 0659ms total)
T1DC8 000:864 JLINK_WriteReg(R0, 0x00021000)  returns 0x00 (0000ms, 0659ms total)
T1DC8 000:864 JLINK_WriteReg(R1, 0x00001000)  returns 0x00 (0000ms, 0659ms total)
T1DC8 000:864 JLINK_WriteReg(R2, 0x000000FF)  returns 0x00 (0000ms, 0659ms total)
T1DC8 000:864 JLINK_WriteReg(R3, 0x00000000)  returns 0x00 (0000ms, 0659ms total)
T1DC8 000:864 JLINK_WriteReg(R4, 0x00000000)  returns 0x00 (0000ms, 0659ms total)
T1DC8 000:864 JLINK_WriteReg(R5, 0x00000000)  returns 0x00 (0000ms, 0659ms total)
T1DC8 000:864 JLINK_WriteReg(R6, 0x00000000)  returns 0x00 (0000ms, 0659ms total)
T1DC8 000:864 JLINK_WriteReg(R7, 0x00000000)  returns 0x00 (0000ms, 0659ms total)
T1DC8 000:864 JLINK_WriteReg(R8, 0x00000000)  returns 0x00 (0000ms, 0659ms total)
T1DC8 000:864 JLINK_WriteReg(R9, 0x200001F0)  returns 0x00 (0001ms, 0660ms total)
T1DC8 000:865 JLINK_WriteReg(R10, 0x00000000)  returns 0x00 (0000ms, 0660ms total)
T1DC8 000:865 JLINK_WriteReg(R11, 0x00000000)  returns 0x00 (0000ms, 0660ms total)
T1DC8 000:865 JLINK_WriteReg(R12, 0x00000000)  returns 0x00 (0000ms, 0660ms total)
T1DC8 000:865 JLINK_WriteReg(R13 (SP), 0x20004000)  returns 0x00 (0000ms, 0660ms total)
T1DC8 000:865 JLINK_WriteReg(R14, 0x20000001)  returns 0x00 (0000ms, 0660ms total)
T1DC8 000:865 JLINK_WriteReg(R15 (PC), 0x200000E4)  returns 0x00 (0000ms, 0660ms total)
T1DC8 000:865 JLINK_WriteReg(XPSR, 0x01000000)  returns 0x00 (0000ms, 0660ms total)
T1DC8 000:865 JLINK_WriteReg(MSP, 0x20004000)  returns 0x00 (0000ms, 0660ms total)
T1DC8 000:865 JLINK_WriteReg(PSP, 0x20004000)  returns 0x00 (0000ms, 0660ms total)
T1DC8 000:865 JLINK_WriteReg(CFBP, 0x00000000)  returns 0x00 (0000ms, 0660ms total)
T1DC8 000:865 JLINK_SetBPEx(Addr = 0x20000000, Type = 0xFFFFFFF2)  returns 0x00000006 (0000ms, 0660ms total)
T1DC8 000:865 JLINK_Go() -- CPU_ReadMem(4 bytes @ 0xE0001000) (0005ms, 0665ms total)
T1DC8 000:870 JLINK_IsHalted() -- CPU_ReadMem(2 bytes @ 0x20000000)  returns TRUE (0007ms, 0672ms total)
T1DC8 000:877 JLINK_ReadReg(R15 (PC))  returns 0x20000000 (0001ms, 0666ms total)
T1DC8 000:878 JLINK_ClrBPEx(BPHandle = 0x00000006)  returns 0x00 (0000ms, 0666ms total)
T1DC8 000:878 JLINK_ReadReg(R0)  returns 0x00000001 (0000ms, 0666ms total)
T1DC8 000:878 JLINK_WriteReg(R0, 0x00021000)  returns 0x00 (0000ms, 0666ms total)
T1DC8 000:878 JLINK_WriteReg(R1, 0x00001000)  returns 0x00 (0000ms, 0666ms total)
T1DC8 000:878 JLINK_WriteReg(R2, 0x000000FF)  returns 0x00 (0000ms, 0666ms total)
T1DC8 000:878 JLINK_WriteReg(R3, 0x00000000)  returns 0x00 (0000ms, 0666ms total)
T1DC8 000:878 JLINK_WriteReg(R4, 0x00000000)  returns 0x00 (0000ms, 0666ms total)
T1DC8 000:878 JLINK_WriteReg(R5, 0x00000000)  returns 0x00 (0000ms, 0666ms total)
T1DC8 000:878 JLINK_WriteReg(R6, 0x00000000)  returns 0x00 (0000ms, 0666ms total)
T1DC8 000:878 JLINK_WriteReg(R7, 0x00000000)  returns 0x00 (0000ms, 0666ms total)
T1DC8 000:878 JLINK_WriteReg(R8, 0x00000000)  returns 0x00 (0000ms, 0666ms total)
T1DC8 000:878 JLINK_WriteReg(R9, 0x200001F0)  returns 0x00 (0000ms, 0666ms total)
T1DC8 000:878 JLINK_WriteReg(R10, 0x00000000)  returns 0x00 (0001ms, 0667ms total)
T1DC8 000:879 JLINK_WriteReg(R11, 0x00000000)  returns 0x00 (0000ms, 0667ms total)
T1DC8 000:879 JLINK_WriteReg(R12, 0x00000000)  returns 0x00 (0000ms, 0667ms total)
T1DC8 000:879 JLINK_WriteReg(R13 (SP), 0x20004000)  returns 0x00 (0000ms, 0667ms total)
T1DC8 000:879 JLINK_WriteReg(R14, 0x20000001)  returns 0x00 (0000ms, 0667ms total)
T1DC8 000:879 JLINK_WriteReg(R15 (PC), 0x200000A2)  returns 0x00 (0000ms, 0667ms total)
T1DC8 000:879 JLINK_WriteReg(XPSR, 0x01000000)  returns 0x00 (0000ms, 0667ms total)
T1DC8 000:879 JLINK_WriteReg(MSP, 0x20004000)  returns 0x00 (0000ms, 0667ms total)
T1DC8 000:879 JLINK_WriteReg(PSP, 0x20004000)  returns 0x00 (0000ms, 0667ms total)
T1DC8 000:879 JLINK_WriteReg(CFBP, 0x00000000)  returns 0x00 (0000ms, 0667ms total)
T1DC8 000:879 JLINK_SetBPEx(Addr = 0x20000000, Type = 0xFFFFFFF2)  returns 0x00000007 (0000ms, 0667ms total)
T1DC8 000:879 JLINK_Go() -- CPU_ReadMem(4 bytes @ 0xE0001000) (0004ms, 0671ms total)
T1DC8 000:883 JLINK_IsHalted()  returns FALSE (0001ms, 0672ms total)
T1DC8 000:932 JLINK_IsHalted() -- CPU_ReadMem(2 bytes @ 0x20000000)  returns TRUE (0007ms, 0678ms total)
T1DC8 000:939 JLINK_ReadReg(R15 (PC))  returns 0x20000000 (0000ms, 0671ms total)
T1DC8 000:939 JLINK_ClrBPEx(BPHandle = 0x00000007)  returns 0x00 (0000ms, 0671ms total)
T1DC8 000:939 JLINK_ReadReg(R0)  returns 0x00000000 (0000ms, 0671ms total)
T1DC8 000:940 JLINK_WriteReg(R0, 0x00022000)  returns 0x00 (0000ms, 0671ms total)
T1DC8 000:940 JLINK_WriteReg(R1, 0x00001000)  returns 0x00 (0000ms, 0671ms total)
T1DC8 000:940 JLINK_WriteReg(R2, 0x000000FF)  returns 0x00 (0000ms, 0671ms total)
T1DC8 000:940 JLINK_WriteReg(R3, 0x00000000)  returns 0x00 (0000ms, 0671ms total)
T1DC8 000:940 JLINK_WriteReg(R4, 0x00000000)  returns 0x00 (0000ms, 0671ms total)
T1DC8 000:940 JLINK_WriteReg(R5, 0x00000000)  returns 0x00 (0000ms, 0671ms total)
T1DC8 000:940 JLINK_WriteReg(R6, 0x00000000)  returns 0x00 (0000ms, 0671ms total)
T1DC8 000:940 JLINK_WriteReg(R7, 0x00000000)  returns 0x00 (0000ms, 0671ms total)
T1DC8 000:940 JLINK_WriteReg(R8, 0x00000000)  returns 0x00 (0000ms, 0671ms total)
T1DC8 000:940 JLINK_WriteReg(R9, 0x200001F0)  returns 0x00 (0000ms, 0671ms total)
T1DC8 000:940 JLINK_WriteReg(R10, 0x00000000)  returns 0x00 (0000ms, 0671ms total)
T1DC8 000:940 JLINK_WriteReg(R11, 0x00000000)  returns 0x00 (0000ms, 0671ms total)
T1DC8 000:940 JLINK_WriteReg(R12, 0x00000000)  returns 0x00 (0000ms, 0671ms total)
T1DC8 000:940 JLINK_WriteReg(R13 (SP), 0x20004000)  returns 0x00 (0000ms, 0671ms total)
T1DC8 000:940 JLINK_WriteReg(R14, 0x20000001)  returns 0x00 (0000ms, 0671ms total)
T1DC8 000:940 JLINK_WriteReg(R15 (PC), 0x200000E4)  returns 0x00 (0000ms, 0671ms total)
T1DC8 000:940 JLINK_WriteReg(XPSR, 0x01000000)  returns 0x00 (0000ms, 0671ms total)
T1DC8 000:940 JLINK_WriteReg(MSP, 0x20004000)  returns 0x00 (0000ms, 0671ms total)
T1DC8 000:940 JLINK_WriteReg(PSP, 0x20004000)  returns 0x00 (0000ms, 0671ms total)
T1DC8 000:941 JLINK_WriteReg(CFBP, 0x00000000)  returns 0x00 (0000ms, 0671ms total)
T1DC8 000:941 JLINK_SetBPEx(Addr = 0x20000000, Type = 0xFFFFFFF2)  returns 0x00000008 (0000ms, 0671ms total)
T1DC8 000:941 JLINK_Go() -- CPU_ReadMem(4 bytes @ 0xE0001000) (0004ms, 0675ms total)
T1DC8 000:945 JLINK_IsHalted() -- CPU_ReadMem(2 bytes @ 0x20000000)  returns TRUE (0007ms, 0682ms total)
T1DC8 000:953 JLINK_ReadReg(R15 (PC))  returns 0x20000000 (0000ms, 0675ms total)
T1DC8 000:953 JLINK_ClrBPEx(BPHandle = 0x00000008)  returns 0x00 (0000ms, 0675ms total)
T1DC8 000:953 JLINK_ReadReg(R0)  returns 0x00000001 (0000ms, 0675ms total)
T1DC8 000:953 JLINK_WriteReg(R0, 0x00022000)  returns 0x00 (0000ms, 0675ms total)
T1DC8 000:953 JLINK_WriteReg(R1, 0x00001000)  returns 0x00 (0000ms, 0675ms total)
T1DC8 000:953 JLINK_WriteReg(R2, 0x000000FF)  returns 0x00 (0000ms, 0675ms total)
T1DC8 000:953 JLINK_WriteReg(R3, 0x00000000)  returns 0x00 (0000ms, 0675ms total)
T1DC8 000:953 JLINK_WriteReg(R4, 0x00000000)  returns 0x00 (0000ms, 0675ms total)
T1DC8 000:953 JLINK_WriteReg(R5, 0x00000000)  returns 0x00 (0000ms, 0675ms total)
T1DC8 000:953 JLINK_WriteReg(R6, 0x00000000)  returns 0x00 (0000ms, 0675ms total)
T1DC8 000:953 JLINK_WriteReg(R7, 0x00000000)  returns 0x00 (0000ms, 0675ms total)
T1DC8 000:953 JLINK_WriteReg(R8, 0x00000000)  returns 0x00 (0000ms, 0675ms total)
T1DC8 000:953 JLINK_WriteReg(R9, 0x200001F0)  returns 0x00 (0000ms, 0675ms total)
T1DC8 000:953 JLINK_WriteReg(R10, 0x00000000)  returns 0x00 (0000ms, 0675ms total)
T1DC8 000:953 JLINK_WriteReg(R11, 0x00000000)  returns 0x00 (0000ms, 0675ms total)
T1DC8 000:953 JLINK_WriteReg(R12, 0x00000000)  returns 0x00 (0000ms, 0675ms total)
T1DC8 000:953 JLINK_WriteReg(R13 (SP), 0x20004000)  returns 0x00 (0000ms, 0675ms total)
T1DC8 000:953 JLINK_WriteReg(R14, 0x20000001)  returns 0x00 (0000ms, 0675ms total)
T1DC8 000:953 JLINK_WriteReg(R15 (PC), 0x200000A2)  returns 0x00 (0000ms, 0675ms total)
T1DC8 000:953 JLINK_WriteReg(XPSR, 0x01000000)  returns 0x00 (0000ms, 0675ms total)
T1DC8 000:953 JLINK_WriteReg(MSP, 0x20004000)  returns 0x00 (0000ms, 0675ms total)
T1DC8 000:953 JLINK_WriteReg(PSP, 0x20004000)  returns 0x00 (0000ms, 0675ms total)
T1DC8 000:953 JLINK_WriteReg(CFBP, 0x00000000)  returns 0x00 (0001ms, 0676ms total)
T1DC8 000:954 JLINK_SetBPEx(Addr = 0x20000000, Type = 0xFFFFFFF2)  returns 0x00000009 (0000ms, 0676ms total)
T1DC8 000:954 JLINK_Go() -- CPU_ReadMem(4 bytes @ 0xE0001000) (0003ms, 0679ms total)
T1DC8 000:957 JLINK_IsHalted()  returns FALSE (0001ms, 0680ms total)
T1DC8 000:960 JLINK_IsHalted() -- CPU_ReadMem(2 bytes @ 0x20000000)  returns TRUE (0007ms, 0686ms total)
T1DC8 000:967 JLINK_ReadReg(R15 (PC))  returns 0x20000000 (0000ms, 0679ms total)
T1DC8 000:967 JLINK_ClrBPEx(BPHandle = 0x00000009)  returns 0x00 (0000ms, 0679ms total)
T1DC8 000:967 JLINK_ReadReg(R0)  returns 0x00000000 (0000ms, 0679ms total)
T1DC8 000:968 JLINK_WriteReg(R0, 0x00023000)  returns 0x00 (0000ms, 0679ms total)
T1DC8 000:968 JLINK_WriteReg(R1, 0x00001000)  returns 0x00 (0000ms, 0679ms total)
T1DC8 000:968 JLINK_WriteReg(R2, 0x000000FF)  returns 0x00 (0000ms, 0679ms total)
T1DC8 000:968 JLINK_WriteReg(R3, 0x00000000)  returns 0x00 (0000ms, 0679ms total)
T1DC8 000:968 JLINK_WriteReg(R4, 0x00000000)  returns 0x00 (0000ms, 0679ms total)
T1DC8 000:968 JLINK_WriteReg(R5, 0x00000000)  returns 0x00 (0000ms, 0679ms total)
T1DC8 000:968 JLINK_WriteReg(R6, 0x00000000)  returns 0x00 (0000ms, 0679ms total)
T1DC8 000:968 JLINK_WriteReg(R7, 0x00000000)  returns 0x00 (0000ms, 0679ms total)
T1DC8 000:968 JLINK_WriteReg(R8, 0x00000000)  returns 0x00 (0000ms, 0679ms total)
T1DC8 000:968 JLINK_WriteReg(R9, 0x200001F0)  returns 0x00 (0000ms, 0679ms total)
T1DC8 000:968 JLINK_WriteReg(R10, 0x00000000)  returns 0x00 (0000ms, 0679ms total)
T1DC8 000:968 JLINK_WriteReg(R11, 0x00000000)  returns 0x00 (0000ms, 0679ms total)
T1DC8 000:968 JLINK_WriteReg(R12, 0x00000000)  returns 0x00 (0000ms, 0679ms total)
T1DC8 000:968 JLINK_WriteReg(R13 (SP), 0x20004000)  returns 0x00 (0000ms, 0679ms total)
T1DC8 000:968 JLINK_WriteReg(R14, 0x20000001)  returns 0x00 (0000ms, 0679ms total)
T1DC8 000:968 JLINK_WriteReg(R15 (PC), 0x200000E4)  returns 0x00 (0000ms, 0679ms total)
T1DC8 000:968 JLINK_WriteReg(XPSR, 0x01000000)  returns 0x00 (0000ms, 0679ms total)
T1DC8 000:968 JLINK_WriteReg(MSP, 0x20004000)  returns 0x00 (0000ms, 0679ms total)
T1DC8 000:969 JLINK_WriteReg(PSP, 0x20004000)  returns 0x00 (0000ms, 0680ms total)
T1DC8 000:969 JLINK_WriteReg(CFBP, 0x00000000)  returns 0x00 (0000ms, 0680ms total)
T1DC8 000:969 JLINK_SetBPEx(Addr = 0x20000000, Type = 0xFFFFFFF2)  returns 0x0000000A (0000ms, 0680ms total)
T1DC8 000:969 JLINK_Go() -- CPU_ReadMem(4 bytes @ 0xE0001000) (0003ms, 0683ms total)
T1DC8 000:972 JLINK_IsHalted() -- CPU_ReadMem(2 bytes @ 0x20000000)  returns TRUE (0007ms, 0690ms total)
T1DC8 000:979 JLINK_ReadReg(R15 (PC))  returns 0x20000000 (0000ms, 0683ms total)
T1DC8 000:979 JLINK_ClrBPEx(BPHandle = 0x0000000A)  returns 0x00 (0001ms, 0684ms total)
T1DC8 000:980 JLINK_ReadReg(R0)  returns 0x00000001 (0000ms, 0684ms total)
T1DC8 000:980 JLINK_WriteReg(R0, 0x00023000)  returns 0x00 (0000ms, 0684ms total)
T1DC8 000:980 JLINK_WriteReg(R1, 0x00001000)  returns 0x00 (0000ms, 0684ms total)
T1DC8 000:980 JLINK_WriteReg(R2, 0x000000FF)  returns 0x00 (0000ms, 0684ms total)
T1DC8 000:980 JLINK_WriteReg(R3, 0x00000000)  returns 0x00 (0000ms, 0684ms total)
T1DC8 000:980 JLINK_WriteReg(R4, 0x00000000)  returns 0x00 (0000ms, 0684ms total)
T1DC8 000:980 JLINK_WriteReg(R5, 0x00000000)  returns 0x00 (0000ms, 0684ms total)
T1DC8 000:980 JLINK_WriteReg(R6, 0x00000000)  returns 0x00 (0000ms, 0684ms total)
T1DC8 000:980 JLINK_WriteReg(R7, 0x00000000)  returns 0x00 (0000ms, 0684ms total)
T1DC8 000:980 JLINK_WriteReg(R8, 0x00000000)  returns 0x00 (0000ms, 0684ms total)
T1DC8 000:980 JLINK_WriteReg(R9, 0x200001F0)  returns 0x00 (0000ms, 0684ms total)
T1DC8 000:980 JLINK_WriteReg(R10, 0x00000000)  returns 0x00 (0000ms, 0684ms total)
T1DC8 000:980 JLINK_WriteReg(R11, 0x00000000)  returns 0x00 (0000ms, 0684ms total)
T1DC8 000:980 JLINK_WriteReg(R12, 0x00000000)  returns 0x00 (0000ms, 0684ms total)
T1DC8 000:980 JLINK_WriteReg(R13 (SP), 0x20004000)  returns 0x00 (0000ms, 0684ms total)
T1DC8 000:980 JLINK_WriteReg(R14, 0x20000001)  returns 0x00 (0000ms, 0684ms total)
T1DC8 000:980 JLINK_WriteReg(R15 (PC), 0x200000A2)  returns 0x00 (0000ms, 0684ms total)
T1DC8 000:980 JLINK_WriteReg(XPSR, 0x01000000)  returns 0x00 (0000ms, 0684ms total)
T1DC8 000:980 JLINK_WriteReg(MSP, 0x20004000)  returns 0x00 (0000ms, 0684ms total)
T1DC8 000:980 JLINK_WriteReg(PSP, 0x20004000)  returns 0x00 (0000ms, 0684ms total)
T1DC8 000:980 JLINK_WriteReg(CFBP, 0x00000000)  returns 0x00 (0000ms, 0684ms total)
T1DC8 000:980 JLINK_SetBPEx(Addr = 0x20000000, Type = 0xFFFFFFF2)  returns 0x0000000B (0000ms, 0684ms total)
T1DC8 000:980 JLINK_Go() -- CPU_ReadMem(4 bytes @ 0xE0001000) (0003ms, 0687ms total)
T1DC8 000:983 JLINK_IsHalted()  returns FALSE (0001ms, 0688ms total)
T1DC8 000:999 JLINK_IsHalted() -- CPU_ReadMem(2 bytes @ 0x20000000)  returns TRUE (0007ms, 0694ms total)
T1DC8 001:006 JLINK_ReadReg(R15 (PC))  returns 0x20000000 (0000ms, 0687ms total)
T1DC8 001:006 JLINK_ClrBPEx(BPHandle = 0x0000000B)  returns 0x00 (0000ms, 0687ms total)
T1DC8 001:006 JLINK_ReadReg(R0)  returns 0x00000000 (0001ms, 0688ms total)
T1DC8 001:007 JLINK_WriteReg(R0, 0x00000001)  returns 0x00 (0000ms, 0688ms total)
T1DC8 001:007 JLINK_WriteReg(R1, 0x00001000)  returns 0x00 (0000ms, 0688ms total)
T1DC8 001:007 JLINK_WriteReg(R2, 0x000000FF)  returns 0x00 (0000ms, 0688ms total)
T1DC8 001:007 JLINK_WriteReg(R3, 0x00000000)  returns 0x00 (0000ms, 0688ms total)
T1DC8 001:007 JLINK_WriteReg(R4, 0x00000000)  returns 0x00 (0000ms, 0688ms total)
T1DC8 001:007 JLINK_WriteReg(R5, 0x00000000)  returns 0x00 (0000ms, 0688ms total)
T1DC8 001:007 JLINK_WriteReg(R6, 0x00000000)  returns 0x00 (0000ms, 0688ms total)
T1DC8 001:007 JLINK_WriteReg(R7, 0x00000000)  returns 0x00 (0000ms, 0688ms total)
T1DC8 001:007 JLINK_WriteReg(R8, 0x00000000)  returns 0x00 (0000ms, 0688ms total)
T1DC8 001:007 JLINK_WriteReg(R9, 0x200001F0)  returns 0x00 (0000ms, 0688ms total)
T1DC8 001:007 JLINK_WriteReg(R10, 0x00000000)  returns 0x00 (0000ms, 0688ms total)
T1DC8 001:007 JLINK_WriteReg(R11, 0x00000000)  returns 0x00 (0000ms, 0688ms total)
T1DC8 001:007 JLINK_WriteReg(R12, 0x00000000)  returns 0x00 (0000ms, 0688ms total)
T1DC8 001:007 JLINK_WriteReg(R13 (SP), 0x20004000)  returns 0x00 (0000ms, 0688ms total)
T1DC8 001:007 JLINK_WriteReg(R14, 0x20000001)  returns 0x00 (0000ms, 0688ms total)
T1DC8 001:007 JLINK_WriteReg(R15 (PC), 0x20000058)  returns 0x00 (0000ms, 0688ms total)
T1DC8 001:007 JLINK_WriteReg(XPSR, 0x01000000)  returns 0x00 (0001ms, 0689ms total)
T1DC8 001:008 JLINK_WriteReg(MSP, 0x20004000)  returns 0x00 (0000ms, 0689ms total)
T1DC8 001:008 JLINK_WriteReg(PSP, 0x20004000)  returns 0x00 (0000ms, 0689ms total)
T1DC8 001:008 JLINK_WriteReg(CFBP, 0x00000000)  returns 0x00 (0000ms, 0689ms total)
T1DC8 001:008 JLINK_SetBPEx(Addr = 0x20000000, Type = 0xFFFFFFF2)  returns 0x0000000C (0000ms, 0689ms total)
T1DC8 001:008 JLINK_Go() -- CPU_ReadMem(4 bytes @ 0xE0001000) (0004ms, 0693ms total)
T1DC8 001:012 JLINK_IsHalted() -- CPU_ReadMem(2 bytes @ 0x20000000)  returns TRUE (0007ms, 0700ms total)
T1DC8 001:019 JLINK_ReadReg(R15 (PC))  returns 0x20000000 (0000ms, 0693ms total)
T1DC8 001:019 JLINK_ClrBPEx(BPHandle = 0x0000000C)  returns 0x00 (0000ms, 0693ms total)
T1DC8 001:019 JLINK_ReadReg(R0)  returns 0x00000000 (0000ms, 0693ms total)
T1DC8 001:085 JLINK_WriteMem(0x20000000, 0x01F4 Bytes, ...) - Data: 00 BE 0A E0 0D 78 2D 06 68 40 08 24 40 00 00 D3 ... -- CPU_WriteMem(500 bytes @ 0x20000000)  returns 0x1F4 (0007ms, 0700ms total)
T1DC8 001:092 JLINK_WriteReg(R0, 0x00000000)  returns 0x00 (0000ms, 0700ms total)
T1DC8 001:092 JLINK_WriteReg(R1, 0x03D09000)  returns 0x00 (0000ms, 0700ms total)
T1DC8 001:093 JLINK_WriteReg(R2, 0x00000002)  returns 0x00 (0000ms, 0701ms total)
T1DC8 001:093 JLINK_WriteReg(R3, 0x00000000)  returns 0x00 (0000ms, 0701ms total)
T1DC8 001:093 JLINK_WriteReg(R4, 0x00000000)  returns 0x00 (0000ms, 0701ms total)
T1DC8 001:093 JLINK_WriteReg(R5, 0x00000000)  returns 0x00 (0000ms, 0701ms total)
T1DC8 001:093 JLINK_WriteReg(R6, 0x00000000)  returns 0x00 (0000ms, 0701ms total)
T1DC8 001:093 JLINK_WriteReg(R7, 0x00000000)  returns 0x00 (0000ms, 0701ms total)
T1DC8 001:093 JLINK_WriteReg(R8, 0x00000000)  returns 0x00 (0000ms, 0701ms total)
T1DC8 001:093 JLINK_WriteReg(R9, 0x200001F0)  returns 0x00 (0000ms, 0701ms total)
T1DC8 001:093 JLINK_WriteReg(R10, 0x00000000)  returns 0x00 (0000ms, 0701ms total)
T1DC8 001:093 JLINK_WriteReg(R11, 0x00000000)  returns 0x00 (0000ms, 0701ms total)
T1DC8 001:093 JLINK_WriteReg(R12, 0x00000000)  returns 0x00 (0000ms, 0701ms total)
T1DC8 001:093 JLINK_WriteReg(R13 (SP), 0x20004000)  returns 0x00 (0001ms, 0702ms total)
T1DC8 001:094 JLINK_WriteReg(R14, 0x20000001)  returns 0x00 (0000ms, 0702ms total)
T1DC8 001:094 JLINK_WriteReg(R15 (PC), 0x20000028)  returns 0x00 (0000ms, 0702ms total)
T1DC8 001:094 JLINK_WriteReg(XPSR, 0x01000000)  returns 0x00 (0000ms, 0702ms total)
T1DC8 001:094 JLINK_WriteReg(MSP, 0x20004000)  returns 0x00 (0000ms, 0702ms total)
T1DC8 001:094 JLINK_WriteReg(PSP, 0x20004000)  returns 0x00 (0000ms, 0702ms total)
T1DC8 001:094 JLINK_WriteReg(CFBP, 0x00000000)  returns 0x00 (0000ms, 0702ms total)
T1DC8 001:094 JLINK_SetBPEx(Addr = 0x20000000, Type = 0xFFFFFFF2) -- CPU_ReadMem(2 bytes @ 0x20000000)  returns 0x0000000D (0001ms, 0703ms total)
T1DC8 001:095 JLINK_Go() -- CPU_WriteMem(2 bytes @ 0x20000000) -- CPU_ReadMem(4 bytes @ 0xE0001000) (0005ms, 0708ms total)
T1DC8 001:100 JLINK_IsHalted() -- CPU_ReadMem(2 bytes @ 0x20000000)  returns TRUE (0007ms, 0715ms total)
T1DC8 001:107 JLINK_ReadReg(R15 (PC))  returns 0x20000000 (0000ms, 0708ms total)
T1DC8 001:107 JLINK_ClrBPEx(BPHandle = 0x0000000D)  returns 0x00 (0000ms, 0708ms total)
T1DC8 001:107 JLINK_ReadReg(R0)  returns 0x00000000 (0000ms, 0708ms total)
T1DC8 001:108 JLINK_WriteMem(0x200001F4, 0x0E0C Bytes, ...) - Data: 88 51 00 20 8D F4 01 00 95 F4 01 00 97 F4 01 00 ... -- CPU_WriteMem(3596 bytes @ 0x200001F4)  returns 0xE0C (0048ms, 0756ms total)
T1DC8 001:156 JLINK_WriteMem(0x20001000, 0x01F4 Bytes, ...) - Data: 18 46 00 F0 C7 F8 00 BF 00 BF 28 B0 10 BD 00 00 ... -- CPU_WriteMem(500 bytes @ 0x20001000)  returns 0x1F4 (0008ms, 0764ms total)
T1DC8 001:164 JLINK_WriteReg(R0, 0x0001F000)  returns 0x00 (0000ms, 0764ms total)
T1DC8 001:164 JLINK_WriteReg(R1, 0x00001000)  returns 0x00 (0000ms, 0764ms total)
T1DC8 001:164 JLINK_WriteReg(R2, 0x200001F4)  returns 0x00 (0000ms, 0764ms total)
T1DC8 001:164 JLINK_WriteReg(R3, 0x00000000)  returns 0x00 (0000ms, 0764ms total)
T1DC8 001:164 JLINK_WriteReg(R4, 0x00000000)  returns 0x00 (0000ms, 0764ms total)
T1DC8 001:164 JLINK_WriteReg(R5, 0x00000000)  returns 0x00 (0000ms, 0764ms total)
T1DC8 001:164 JLINK_WriteReg(R6, 0x00000000)  returns 0x00 (0000ms, 0764ms total)
T1DC8 001:164 JLINK_WriteReg(R7, 0x00000000)  returns 0x00 (0000ms, 0764ms total)
T1DC8 001:164 JLINK_WriteReg(R8, 0x00000000)  returns 0x00 (0001ms, 0765ms total)
T1DC8 001:165 JLINK_WriteReg(R9, 0x200001F0)  returns 0x00 (0000ms, 0765ms total)
T1DC8 001:165 JLINK_WriteReg(R10, 0x00000000)  returns 0x00 (0000ms, 0765ms total)
T1DC8 001:165 JLINK_WriteReg(R11, 0x00000000)  returns 0x00 (0000ms, 0765ms total)
T1DC8 001:165 JLINK_WriteReg(R12, 0x00000000)  returns 0x00 (0000ms, 0765ms total)
T1DC8 001:165 JLINK_WriteReg(R13 (SP), 0x20004000)  returns 0x00 (0000ms, 0765ms total)
T1DC8 001:165 JLINK_WriteReg(R14, 0x20000001)  returns 0x00 (0000ms, 0765ms total)
T1DC8 001:165 JLINK_WriteReg(R15 (PC), 0x20000120)  returns 0x00 (0000ms, 0765ms total)
T1DC8 001:165 JLINK_WriteReg(XPSR, 0x01000000)  returns 0x00 (0000ms, 0765ms total)
T1DC8 001:165 JLINK_WriteReg(MSP, 0x20004000)  returns 0x00 (0000ms, 0765ms total)
T1DC8 001:165 JLINK_WriteReg(PSP, 0x20004000)  returns 0x00 (0000ms, 0765ms total)
T1DC8 001:165 JLINK_WriteReg(CFBP, 0x00000000)  returns 0x00 (0001ms, 0766ms total)
T1DC8 001:166 JLINK_SetBPEx(Addr = 0x20000000, Type = 0xFFFFFFF2)  returns 0x0000000E (0000ms, 0766ms total)
T1DC8 001:166 JLINK_Go() -- CPU_ReadMem(4 bytes @ 0xE0001000) (0004ms, 0770ms total)
T1DC8 001:170 JLINK_IsHalted()  returns FALSE (0001ms, 0771ms total)
T1DC8 001:237 JLINK_IsHalted()  returns FALSE (0000ms, 0770ms total)
T1DC8 001:256 JLINK_IsHalted() -- CPU_ReadMem(2 bytes @ 0x20000000)  returns TRUE (0007ms, 0777ms total)
T1DC8 001:263 JLINK_ReadReg(R15 (PC))  returns 0x20000000 (0000ms, 0770ms total)
T1DC8 001:263 JLINK_ClrBPEx(BPHandle = 0x0000000E)  returns 0x00 (0000ms, 0770ms total)
T1DC8 001:263 JLINK_ReadReg(R0)  returns 0x00000000 (0000ms, 0770ms total)
T1DC8 001:264 JLINK_WriteMem(0x200001F4, 0x0E0C Bytes, ...) - Data: 01 21 00 28 07 DA 4A 07 16 0E 11 4A 00 F0 0F 03 ... -- CPU_WriteMem(3596 bytes @ 0x200001F4)  returns 0xE0C (0048ms, 0818ms total)
T1DC8 001:313 JLINK_WriteMem(0x20001000, 0x01F4 Bytes, ...) - Data: 04 EB 44 00 09 49 08 44 90 F8 01 80 00 BF 00 BF ... -- CPU_WriteMem(500 bytes @ 0x20001000)  returns 0x1F4 (0007ms, 0825ms total)
T1DC8 001:320 JLINK_WriteReg(R0, 0x00020000)  returns 0x00 (0000ms, 0825ms total)
T1DC8 001:320 JLINK_WriteReg(R1, 0x00001000)  returns 0x00 (0000ms, 0825ms total)
T1DC8 001:320 JLINK_WriteReg(R2, 0x200001F4)  returns 0x00 (0001ms, 0826ms total)
T1DC8 001:321 JLINK_WriteReg(R3, 0x00000000)  returns 0x00 (0000ms, 0826ms total)
T1DC8 001:321 JLINK_WriteReg(R4, 0x00000000)  returns 0x00 (0000ms, 0826ms total)
T1DC8 001:321 JLINK_WriteReg(R5, 0x00000000)  returns 0x00 (0000ms, 0826ms total)
T1DC8 001:321 JLINK_WriteReg(R6, 0x00000000)  returns 0x00 (0000ms, 0826ms total)
T1DC8 001:321 JLINK_WriteReg(R7, 0x00000000)  returns 0x00 (0000ms, 0826ms total)
T1DC8 001:321 JLINK_WriteReg(R8, 0x00000000)  returns 0x00 (0000ms, 0826ms total)
T1DC8 001:321 JLINK_WriteReg(R9, 0x200001F0)  returns 0x00 (0000ms, 0826ms total)
T1DC8 001:321 JLINK_WriteReg(R10, 0x00000000)  returns 0x00 (0000ms, 0826ms total)
T1DC8 001:321 JLINK_WriteReg(R11, 0x00000000)  returns 0x00 (0000ms, 0826ms total)
T1DC8 001:321 JLINK_WriteReg(R12, 0x00000000)  returns 0x00 (0000ms, 0826ms total)
T1DC8 001:322 JLINK_WriteReg(R13 (SP), 0x20004000)  returns 0x00 (0000ms, 0827ms total)
T1DC8 001:322 JLINK_WriteReg(R14, 0x20000001)  returns 0x00 (0000ms, 0827ms total)
T1DC8 001:322 JLINK_WriteReg(R15 (PC), 0x20000120)  returns 0x00 (0000ms, 0827ms total)
T1DC8 001:322 JLINK_WriteReg(XPSR, 0x01000000)  returns 0x00 (0000ms, 0827ms total)
T1DC8 001:322 JLINK_WriteReg(MSP, 0x20004000)  returns 0x00 (0000ms, 0827ms total)
T1DC8 001:322 JLINK_WriteReg(PSP, 0x20004000)  returns 0x00 (0000ms, 0827ms total)
T1DC8 001:322 JLINK_WriteReg(CFBP, 0x00000000)  returns 0x00 (0000ms, 0827ms total)
T1DC8 001:322 JLINK_SetBPEx(Addr = 0x20000000, Type = 0xFFFFFFF2)  returns 0x0000000F (0000ms, 0827ms total)
T1DC8 001:322 JLINK_Go() -- CPU_ReadMem(4 bytes @ 0xE0001000) (0004ms, 0831ms total)
T1DC8 001:327 JLINK_IsHalted()  returns FALSE (0000ms, 0832ms total)
T1DC8 001:374 JLINK_IsHalted()  returns FALSE (0000ms, 0832ms total)
T1DC8 001:375 JLINK_IsHalted()  returns FALSE (0000ms, 0832ms total)
T1DC8 001:376 JLINK_IsHalted()  returns FALSE (0000ms, 0832ms total)
T1DC8 001:377 JLINK_IsHalted()  returns FALSE (0000ms, 0832ms total)
T1DC8 001:378 JLINK_IsHalted()  returns FALSE (0000ms, 0832ms total)
T1DC8 001:379 JLINK_IsHalted()  returns FALSE (0000ms, 0832ms total)
T1DC8 001:380 JLINK_IsHalted()  returns FALSE (0000ms, 0832ms total)
T1DC8 001:381 JLINK_IsHalted()  returns FALSE (0000ms, 0832ms total)
T1DC8 001:382 JLINK_IsHalted()  returns FALSE (0000ms, 0832ms total)
T1DC8 001:383 JLINK_IsHalted()  returns FALSE (0000ms, 0832ms total)
T1DC8 001:384 JLINK_IsHalted()  returns FALSE (0000ms, 0832ms total)
T1DC8 001:385 JLINK_IsHalted()  returns FALSE (0000ms, 0832ms total)
T1DC8 001:386 JLINK_IsHalted()  returns FALSE (0000ms, 0832ms total)
T1DC8 001:387 JLINK_IsHalted()  returns FALSE (0000ms, 0832ms total)
T1DC8 001:388 JLINK_IsHalted()  returns FALSE (0000ms, 0832ms total)
T1DC8 001:389 JLINK_IsHalted()  returns FALSE (0000ms, 0832ms total)
T1DC8 001:390 JLINK_IsHalted()  returns FALSE (0000ms, 0832ms total)
T1DC8 001:391 JLINK_IsHalted()  returns FALSE (0000ms, 0832ms total)
T1DC8 001:392 JLINK_IsHalted()  returns FALSE (0000ms, 0832ms total)
T1DC8 001:393 JLINK_IsHalted()  returns FALSE (0000ms, 0832ms total)
T1DC8 001:394 JLINK_IsHalted()  returns FALSE (0000ms, 0832ms total)
T1DC8 001:395 JLINK_IsHalted() -- CPU_ReadMem(2 bytes @ 0x20000000)  returns TRUE (0007ms, 0839ms total)
T1DC8 001:402 JLINK_ReadReg(R15 (PC))  returns 0x20000000 (0000ms, 0832ms total)
T1DC8 001:402 JLINK_ClrBPEx(BPHandle = 0x0000000F)  returns 0x00 (0000ms, 0832ms total)
T1DC8 001:402 JLINK_ReadReg(R0)  returns 0x00000000 (0000ms, 0832ms total)
T1DC8 001:403 JLINK_WriteMem(0x200001F4, 0x0E0C Bytes, ...) - Data: 02 D1 4F F4 7A 60 01 E0 4F F4 7A 60 05 46 11 E0 ... -- CPU_WriteMem(3596 bytes @ 0x200001F4)  returns 0xE0C (0049ms, 0881ms total)
T1DC8 001:452 JLINK_WriteMem(0x20001000, 0x01F4 Bytes, ...) - Data: C9 F8 00 BF 00 BF 00 BF 10 BD 00 00 64 2D 00 20 ... -- CPU_WriteMem(500 bytes @ 0x20001000)  returns 0x1F4 (0008ms, 0889ms total)
T1DC8 001:460 JLINK_WriteReg(R0, 0x00021000)  returns 0x00 (0000ms, 0889ms total)
T1DC8 001:460 JLINK_WriteReg(R1, 0x00001000)  returns 0x00 (0000ms, 0889ms total)
T1DC8 001:460 JLINK_WriteReg(R2, 0x200001F4)  returns 0x00 (0000ms, 0889ms total)
T1DC8 001:460 JLINK_WriteReg(R3, 0x00000000)  returns 0x00 (0000ms, 0889ms total)
T1DC8 001:460 JLINK_WriteReg(R4, 0x00000000)  returns 0x00 (0001ms, 0890ms total)
T1DC8 001:461 JLINK_WriteReg(R5, 0x00000000)  returns 0x00 (0000ms, 0890ms total)
T1DC8 001:461 JLINK_WriteReg(R6, 0x00000000)  returns 0x00 (0000ms, 0890ms total)
T1DC8 001:461 JLINK_WriteReg(R7, 0x00000000)  returns 0x00 (0000ms, 0890ms total)
T1DC8 001:461 JLINK_WriteReg(R8, 0x00000000)  returns 0x00 (0000ms, 0890ms total)
T1DC8 001:461 JLINK_WriteReg(R9, 0x200001F0)  returns 0x00 (0000ms, 0890ms total)
T1DC8 001:461 JLINK_WriteReg(R10, 0x00000000)  returns 0x00 (0000ms, 0890ms total)
T1DC8 001:461 JLINK_WriteReg(R11, 0x00000000)  returns 0x00 (0000ms, 0890ms total)
T1DC8 001:461 JLINK_WriteReg(R12, 0x00000000)  returns 0x00 (0000ms, 0890ms total)
T1DC8 001:461 JLINK_WriteReg(R13 (SP), 0x20004000)  returns 0x00 (0000ms, 0890ms total)
T1DC8 001:461 JLINK_WriteReg(R14, 0x20000001)  returns 0x00 (0000ms, 0890ms total)
T1DC8 001:461 JLINK_WriteReg(R15 (PC), 0x20000120)  returns 0x00 (0000ms, 0890ms total)
T1DC8 001:461 JLINK_WriteReg(XPSR, 0x01000000)  returns 0x00 (0000ms, 0890ms total)
T1DC8 001:461 JLINK_WriteReg(MSP, 0x20004000)  returns 0x00 (0000ms, 0890ms total)
T1DC8 001:461 JLINK_WriteReg(PSP, 0x20004000)  returns 0x00 (0001ms, 0891ms total)
T1DC8 001:462 JLINK_WriteReg(CFBP, 0x00000000)  returns 0x00 (0000ms, 0891ms total)
T1DC8 001:462 JLINK_SetBPEx(Addr = 0x20000000, Type = 0xFFFFFFF2)  returns 0x00000010 (0000ms, 0891ms total)
T1DC8 001:462 JLINK_Go() -- CPU_ReadMem(4 bytes @ 0xE0001000) (0004ms, 0895ms total)
T1DC8 001:466 JLINK_IsHalted()  returns FALSE (0001ms, 0896ms total)
T1DC8 001:499 JLINK_IsHalted()  returns FALSE (0000ms, 0895ms total)
T1DC8 001:500 JLINK_IsHalted()  returns FALSE (0000ms, 0895ms total)
T1DC8 001:501 JLINK_IsHalted()  returns FALSE (0000ms, 0895ms total)
T1DC8 001:502 JLINK_IsHalted()  returns FALSE (0000ms, 0895ms total)
T1DC8 001:503 JLINK_IsHalted()  returns FALSE (0000ms, 0895ms total)
T1DC8 001:504 JLINK_IsHalted()  returns FALSE (0000ms, 0895ms total)
T1DC8 001:505 JLINK_IsHalted()  returns FALSE (0000ms, 0895ms total)
T1DC8 001:506 JLINK_IsHalted()  returns FALSE (0000ms, 0895ms total)
T1DC8 001:507 JLINK_IsHalted()  returns FALSE (0000ms, 0895ms total)
T1DC8 001:508 JLINK_IsHalted()  returns FALSE (0000ms, 0895ms total)
T1DC8 001:509 JLINK_IsHalted()  returns FALSE (0000ms, 0895ms total)
T1DC8 001:510 JLINK_IsHalted()  returns FALSE (0000ms, 0895ms total)
T1DC8 001:511 JLINK_IsHalted()  returns FALSE (0000ms, 0895ms total)
T1DC8 001:512 JLINK_IsHalted()  returns FALSE (0000ms, 0895ms total)
T1DC8 001:513 JLINK_IsHalted()  returns FALSE (0000ms, 0895ms total)
T1DC8 001:514 JLINK_IsHalted()  returns FALSE (0000ms, 0895ms total)
T1DC8 001:515 JLINK_IsHalted()  returns FALSE (0000ms, 0895ms total)
T1DC8 001:516 JLINK_IsHalted()  returns FALSE (0000ms, 0895ms total)
T1DC8 001:517 JLINK_IsHalted()  returns FALSE (0000ms, 0895ms total)
T1DC8 001:523 JLINK_IsHalted()  returns FALSE (0000ms, 0895ms total)
T1DC8 001:524 JLINK_IsHalted()  returns FALSE (0000ms, 0895ms total)
T1DC8 001:525 JLINK_IsHalted()  returns FALSE (0000ms, 0895ms total)
T1DC8 001:526 JLINK_IsHalted()  returns FALSE (0000ms, 0895ms total)
T1DC8 001:527 JLINK_IsHalted()  returns FALSE (0000ms, 0895ms total)
T1DC8 001:528 JLINK_IsHalted()  returns FALSE (0000ms, 0895ms total)
T1DC8 001:529 JLINK_IsHalted()  returns FALSE (0000ms, 0895ms total)
T1DC8 001:530 JLINK_IsHalted()  returns FALSE (0000ms, 0895ms total)
T1DC8 001:531 JLINK_IsHalted()  returns FALSE (0000ms, 0895ms total)
T1DC8 001:532 JLINK_IsHalted()  returns FALSE (0000ms, 0895ms total)
T1DC8 001:533 JLINK_IsHalted()  returns FALSE (0000ms, 0895ms total)
T1DC8 001:536 JLINK_IsHalted() -- CPU_ReadMem(2 bytes @ 0x20000000)  returns TRUE (0007ms, 0902ms total)
T1DC8 001:543 JLINK_ReadReg(R15 (PC))  returns 0x20000000 (0000ms, 0895ms total)
T1DC8 001:543 JLINK_ClrBPEx(BPHandle = 0x00000010)  returns 0x00 (0000ms, 0895ms total)
T1DC8 001:543 JLINK_ReadReg(R0)  returns 0x00000000 (0000ms, 0895ms total)
T1DC8 001:543 JLINK_WriteMem(0x200001F4, 0x0E0C Bytes, ...) - Data: 06 00 9D F8 06 00 20 F0 08 00 8D F8 06 00 9D F8 ... -- CPU_WriteMem(3596 bytes @ 0x200001F4)  returns 0xE0C (0049ms, 0944ms total)
T1DC8 001:592 JLINK_WriteMem(0x20001000, 0x01F4 Bytes, ...) - Data: 02 03 63 B1 08 4B 53 F8 20 30 23 F4 40 34 06 4B ... -- CPU_WriteMem(500 bytes @ 0x20001000)  returns 0x1F4 (0008ms, 0952ms total)
T1DC8 001:600 JLINK_WriteReg(R0, 0x00022000)  returns 0x00 (0000ms, 0952ms total)
T1DC8 001:600 JLINK_WriteReg(R1, 0x00001000)  returns 0x00 (0001ms, 0953ms total)
T1DC8 001:601 JLINK_WriteReg(R2, 0x200001F4)  returns 0x00 (0000ms, 0953ms total)
T1DC8 001:601 JLINK_WriteReg(R3, 0x00000000)  returns 0x00 (0000ms, 0953ms total)
T1DC8 001:601 JLINK_WriteReg(R4, 0x00000000)  returns 0x00 (0000ms, 0953ms total)
